name,type,start_time,duration,"t","speedLimit","gear","driveMode","zeroStart","lightEnable","nSpeedMagnets","wheelDiameter","boostSensitivity","boostStrength","currentLimit","underVoltage","speed","cruiseEnable","powerMagnetType","CRC"
"FocanGZ3-TX","GZ3_TX",2.96931,0.035935,1.259638,"20","3","2","1","0","30","100","2","5","18","31.0","0","0","8","29"
"FocanGZ3-RX","GZ3_RX",3.006048,0.014542,1.2963759999999998,,,,,,,,,,,,,,,"151"
"FocanGZ3-TX","GZ3_TX",3.078931,0.036765,1.369259,"20","3","2","1","0","30","100","2","5","18","31.0","0","0","8","29"
"FocanGZ3-RX","GZ3_RX",3.116736,0.01454,1.407064,,,,,,,,,,,,,,,"151"
"FocanGZ3-TX","GZ3_TX",3.188335,0.036244,1.478663,"20","3","2","1","0","30","100","2","5","18","31.0","0","0","8","29"
"FocanGZ3-RX","GZ3_RX",3.225348,0.014539,1.515676,,,,,,,,,,,,,,,"151"
"FocanGZ3-TX","GZ3_TX",3.362413,0.035307,1.652741,"20","3","2","1","0","30","100","2","5","18","31.0","0","0","8","29"
"FocanGZ3-RX","GZ3_RX",3.398507,0.01454,1.688835,,,,,,,,,,,,,,,"151"
"FocanGZ3-TX","GZ3_TX",3.471814,0.038113,1.7621420000000003,"20","3","2","1","0","30","100","2","5","18","31.0","0","0","8","29"
"FocanGZ3-RX","GZ3_RX",3.510219,0.014539,1.8005470000000001,,,,,,,,,,,,,,,"151"
"FocanGZ3-TX","GZ3_TX",3.581107,0.03572,1.871435,"20","3","2","1","0","30","100","2","5","18","31.0","0","0","8","29"
"FocanGZ3-RX","GZ3_RX",3.617775,0.01454,1.908103,,,,,,,,,,,,,,,"151"
"FocanGZ3-TX","GZ3_TX",3.690399,0.036762,1.9807270000000003,"20","3","2","1","0","30","100","2","5","18","31.0","0","0","8","29"
"FocanGZ3-RX","GZ3_RX",3.727445,0.01454,2.017773,,,,,,,,,,,,,,,"151"
"FocanGZ3-TX","GZ3_TX",3.7998,0.037904,2.0901279999999995,"20","3","2","1","0","30","100","2","5","18","31.0","0","0","8","29"
"FocanGZ3-RX","GZ3_RX",3.838113,0.014539,2.128441,,,,,,,,,,,,,,,"151"
"FocanGZ3-TX","GZ3_TX",3.909612,0.037802,2.1999400000000002,"20","3","2","1","0","30","100","2","5","18","31.0","0","0","8","29"
"FocanGZ3-RX","GZ3_RX",3.947749,0.014539,2.238077,,,,,,,,,,,,,,,"151"
"FocanGZ3-TX","GZ3_TX",4.019218,0.036451,2.309546,"20","3","2","1","0","30","100","2","5","18","31.0","0","0","8","29"
"FocanGZ3-RX","GZ3_RX",4.056342,0.01454,2.34667,,,,,,,,,,,,,,,"151"
"FocanGZ3-TX","GZ3_TX",4.12904,0.03687,2.419368,"20","3","2","1","0","30","100","2","5","18","31.0","0","0","8","29"
"FocanGZ3-RX","GZ3_RX",4.166019,0.014541,2.456347,,,,,,,,,,,,,,,"151"
"FocanGZ3-TX","GZ3_TX",4.238653,0.037388,2.5289810000000004,"20","3","2","1","0","30","100","2","5","18","31.0","0","0","8","29"
"FocanGZ3-RX","GZ3_RX",4.276665,0.014542,2.566993,,,,,,,,,,,,,,,"151"
"FocanGZ3-TX","GZ3_TX",4.348474,0.035723,2.638802,"20","3","2","1","0","30","100","2","5","18","31.0","0","0","8","29"
"FocanGZ3-RX","GZ3_RX",4.3843,0.01454,2.674628,,,,,,,,,,,,,,,"151"
"FocanGZ3-TX","GZ3_TX",4.458082,0.038842,2.7484100000000002,"20","3","2","1","0","30","100","2","5","18","31.0","0","0","8","29"
"FocanGZ3-RX","GZ3_RX",4.497023,0.014543,2.787351,,,,,,,,,,,,,,,"151"
"FocanGZ3-TX","GZ3_TX",4.567797,0.036868,2.858125,"20","3","2","1","0","30","100","2","5","18","31.0","0","0","8","29"
"FocanGZ3-RX","GZ3_RX",4.605632,0.014542,2.89596,,,,,,,,,,,,,,,"151"
"FocanGZ3-TX","GZ3_TX",4.677407,0.037907,2.967735,"20","3","2","1","0","30","100","2","5","18","31.0","0","0","8","29"
"FocanGZ3-RX","GZ3_RX",4.716315,0.014541,3.0066429999999995,,,,,,,,,,,,,,,"151"
"FocanGZ3-TX","GZ3_TX",4.787229,0.036351,3.077557,"20","3","2","1","0","30","100","2","5","18","31.0","0","0","8","29"
"FocanGZ3-RX","GZ3_RX",4.823955,0.014541,3.114283,,,,,,,,,,,,,,,"151"
"FocanGZ3-TX","GZ3_TX",4.896857,0.036457,3.187185,"20","3","2","1","0","30","100","2","5","18","31.0","0","0","8","29"
"FocanGZ3-RX","GZ3_RX",4.933616,0.014542,3.223944,,,,,,,,,,,,,,,"151"
"FocanGZ3-TX","GZ3_TX",5.006688,0.036872,3.2970159999999997,"20","3","2","1","0","30","100","2","5","18","31.0","0","0","8","29"
"FocanGZ3-RX","GZ3_RX",5.044256,0.014541,3.3345839999999995,,,,,,,,,,,,,,,"151"
"FocanGZ3-TX","GZ3_TX",5.116311,0.037391,3.406639,"20","3","2","1","0","30","100","2","5","18","31.0","0","0","8","29"
"FocanGZ3-RX","GZ3_RX",5.153941,0.014542,3.444269,,,,,,,,,,,,,,,"151"
"FocanGZ3-TX","GZ3_TX",5.226139,0.036869,3.516467,"20","3","2","1","0","30","100","2","5","18","31.0","0","0","8","29"
"FocanGZ3-RX","GZ3_RX",5.263606,0.014542,3.553934000000001,,,,,,,,,,,,,,,"151"
"FocanGZ3-TX","GZ3_TX",5.335755,0.035933,3.626083,"20","3","2","1","0","30","100","2","5","18","31.0","0","0","8","29"
"FocanGZ3-RX","GZ3_RX",5.37224,0.014541,3.662568,,,,,,,,,,,,,,,"151"
"FocanGZ3-TX","GZ3_TX",5.445585,0.036351,3.735913,"20","3","2","1","0","30","100","2","5","18","31.0","0","0","8","29"
"FocanGZ3-RX","GZ3_RX",5.48289,0.014542,3.773218000000001,,,,,,,,,,,,,,,"151"
"FocanGZ3-TX","GZ3_TX",5.555203,0.035931,3.8455309999999994,"20","3","2","1","0","30","100","2","5","18","31.0","0","0","8","29"
"FocanGZ3-RX","GZ3_RX",5.591552,0.014542,3.88188,,,,,,,,,,,,,,,"151"
"FocanGZ3-TX","GZ3_TX",5.664918,0.035934,3.955246,"20","3","2","1","0","30","100","2","5","18","31.0","0","0","8","29"
"FocanGZ3-RX","GZ3_RX",5.701212,0.014542,3.99154,,,,,,,,,,,,,,,"151"
"FocanGZ3-TX","GZ3_TX",5.774645,0.035412,4.064972999999999,"20","3","2","1","0","30","100","2","5","18","31.0","0","0","8","29"
"FocanGZ3-RX","GZ3_RX",5.810839,0.01454,4.101166999999999,,,,,,,,,,,,,,,"151"
"FocanGZ3-TX","GZ3_TX",5.884469,0.036764,4.174797000000001,"20","3","2","1","0","30","100","2","5","18","31.0","0","0","8","29"
"FocanGZ3-RX","GZ3_RX",5.921554,0.014542,4.211881999999999,,,,,,,,,,,,,,,"151"
"FocanGZ3-TX","GZ3_TX",5.994084,0.035412,4.2844120000000006,"20","3","2","1","0","30","100","2","5","18","31.0","0","0","8","29"
"FocanGZ3-RX","GZ3_RX",6.030161,0.014543,4.320488999999999,,,,,,,,,,,,,,,"151"
"FocanGZ3-TX","GZ3_TX",6.103895,0.035721,4.394223,"20","3","2","1","0","30","100","2","5","18","31.0","0","0","8","29"
"FocanGZ3-RX","GZ3_RX",6.139858,0.014544,4.430186,,,,,,,,,,,,,,,"151"
"FocanGZ3-TX","GZ3_TX",6.213501,0.035408,4.503829,"20","3","2","1","0","30","100","2","5","18","31.0","0","0","8","29"
"FocanGZ3-RX","GZ3_RX",6.249495,0.014542,4.539823,,,,,,,,,,,,,,,"151"
"FocanGZ3-TX","GZ3_TX",6.323206,0.036865,4.613534,"20","3","2","1","0","30","100","2","5","18","31.0","0","0","8","29"
"FocanGZ3-RX","GZ3_RX",6.360218,0.014543,4.650546,,,,,,,,,,,,,,,"151"
"FocanGZ3-TX","GZ3_TX",6.43281,0.038945,4.723137999999999,"20","3","2","1","0","30","100","2","5","18","31.0","0","0","8","29"
"FocanGZ3-RX","GZ3_RX",6.471929,0.014541,4.762257,,,,,,,,,,,,,,,"151"
"FocanGZ3-TX","GZ3_TX",6.542625,0.036866,4.832953,"20","3","2","1","0","30","100","2","5","18","31.0","0","0","8","29"
"FocanGZ3-RX","GZ3_RX",6.580533,0.014543,4.8708610000000006,,,,,,,,,,,,,,,"151"
"FocanGZ3-TX","GZ3_TX",6.652228,0.035511,4.942556000000001,"20","3","2","1","0","30","100","2","5","18","31.0","0","0","8","29"
"FocanGZ3-RX","GZ3_RX",6.688176,0.014541,4.978504000000001,,,,,,,,,,,,,,,"151"
"FocanGZ3-TX","GZ3_TX",6.762036,0.03884,5.052364000000001,"20","3","2","1","0","30","100","2","5","18","31.0","0","0","8","29"
"FocanGZ3-RX","GZ3_RX",6.801885,0.014539,5.092213,,,,,,,,,,,,,,,"151"
"FocanGZ3-TX","GZ3_TX",6.871739,0.035408,5.162067,"20","3","2","1","0","30","100","2","5","18","31.0","0","0","8","29"
"FocanGZ3-RX","GZ3_RX",6.907462,0.01454,5.19779,,,,,,,,,,,,,,,"151"
"FocanGZ3-TX","GZ3_TX",6.98144,0.036865,5.271768,"20","3","2","1","0","30","100","2","5","18","31.0","0","0","8","29"
"FocanGZ3-RX","GZ3_RX",7.01913,0.01454,5.3094579999999985,,,,,,,,,,,,,,,"151"
"FocanGZ3-TX","GZ3_TX",7.091147,0.03541,5.381475,"20","3","2","1","0","30","100","2","5","18","31.0","0","0","8","29"
"FocanGZ3-RX","GZ3_RX",7.126761,0.014542,5.417089,,,,,,,,,,,,,,,"151"
"FocanGZ3-TX","GZ3_TX",7.20086,0.036862,5.491188,"20","3","2","1","0","30","100","2","5","18","31.0","0","0","8","29"
"FocanGZ3-RX","GZ3_RX",7.238428,0.014541,5.528756,,,,,,,,,,,,,,,"151"
"FocanGZ3-TX","GZ3_TX",7.310562,0.035407,5.60089,"20","3","2","1","0","30","100","2","5","18","31.0","0","0","8","29"
"FocanGZ3-RX","GZ3_RX",7.347049,0.014541,5.637377000000001,,,,,,,,,,,,,,,"151"
"FocanGZ3-TX","GZ3_TX",7.420465,0.034782,5.710793,"20","3","2","1","0","30","100","2","5","18","31.0","0","0","8","29"
"FocanGZ3-RX","GZ3_RX",7.455713,0.014541,5.746041000000001,,,,,,,,,,,,,,,"151"
"FocanGZ3-TX","GZ3_TX",7.530169,0.03541,5.820497,"20","3","2","1","0","30","100","2","5","18","31.0","0","0","8","29"
"FocanGZ3-RX","GZ3_RX",7.566354,0.014539,5.856681999999999,,,,,,,,,,,,,,,"151"
"FocanGZ3-TX","GZ3_TX",7.639979,0.035721,5.930307000000001,"20","3","2","1","0","30","100","2","5","18","31.0","0","0","8","29"
"FocanGZ3-RX","GZ3_RX",7.676028,0.01454,5.966355999999999,,,,,,,,,,,,,,,"151"
"FocanGZ3-TX","GZ3_TX",7.749584,0.037384,6.039912,"20","3","2","1","0","30","100","2","5","18","31.0","0","0","8","29"
"FocanGZ3-RX","GZ3_RX",7.78769,0.014542,6.078018,,,,,,,,,,,,,,,"151"
"FocanGZ3-TX","GZ3_TX",7.859394,0.036866,6.149722,"20","3","2","1","0","30","100","2","5","18","31.0","0","0","8","29"
"FocanGZ3-RX","GZ3_RX",7.897343,0.014541,6.187671,,,,,,,,,,,,,,,"151"
"FocanGZ3-TX","GZ3_TX",7.968996,0.037905,6.259324,"20","3","2","1","0","30","100","2","5","18","31.0","0","0","8","29"
"FocanGZ3-RX","GZ3_RX",8.007027,0.014542,6.297355000000001,,,,,,,,,,,,,,,"151"
"FocanGZ3-TX","GZ3_TX",8.078811,0.036864,6.369138999999999,"20","3","2","1","0","30","100","2","5","18","31.0","0","0","8","29"
"FocanGZ3-RX","GZ3_RX",8.116653,0.014541,6.406981,,,,,,,,,,,,,,,"151"
"FocanGZ3-TX","GZ3_TX",8.188416,0.035408,6.478744000000001,"20","3","2","1","0","30","100","2","5","18","31.0","0","0","8","29"
"FocanGZ3-RX","GZ3_RX",8.224293,0.014542,6.514620999999999,,,,,,,,,,,,,,,"151"
"FocanGZ3-TX","GZ3_TX",8.298223,0.035823,6.588551,"20","3","2","1","0","30","100","2","5","18","31.0","0","0","8","29"
"FocanGZ3-RX","GZ3_RX",8.334947,0.014542,6.625274999999999,,,,,,,,,,,,,,,"151"
"FocanGZ3-TX","GZ3_TX",8.407715,0.036968,6.698042999999999,"20","3","2","1","0","30","100","2","5","18","31.0","0","0","8","29"
"FocanGZ3-RX","GZ3_RX",8.445631,0.014541,6.735959000000001,,,,,,,,,,,,,,,"151"
"FocanGZ3-TX","GZ3_TX",8.517622,0.036342,6.807949999999999,"20","3","2","1","0","30","100","2","5","18","31.0","0","0","8","29"
"FocanGZ3-RX","GZ3_RX",8.554292,0.01454,6.844619999999999,,,,,,,,,,,,,,,"151"
"FocanGZ3-TX","GZ3_TX",8.627322,0.037486,6.91765,"20","3","2","1","0","30","100","2","5","18","31.0","0","0","8","29"
"FocanGZ3-RX","GZ3_RX",8.664974,0.014543,6.955302,,,,,,,,,,,,,,,"151"
"FocanGZ3-TX","GZ3_TX",8.737232,0.03572,7.027559999999999,"20","3","2","1","0","30","100","2","5","18","31.0","0","0","8","29"
"FocanGZ3-RX","GZ3_RX",8.773573,0.01454,7.063901,,,,,,,,,,,,,,,"151"
"FocanGZ3-TX","GZ3_TX",8.846832,0.035409,7.137159999999998,"20","3","2","1","0","30","100","2","5","18","31.0","0","0","8","29"
"FocanGZ3-RX","GZ3_RX",8.883225,0.014542,7.173553,,,,,,,,,,,,,,,"151"
"FocanGZ3-TX","GZ3_TX",8.95664,0.036761,7.246967999999999,"20","3","2","1","0","30","100","2","5","18","31.0","0","0","8","29"
"FocanGZ3-RX","GZ3_RX",8.993935,0.014542,7.284263000000001,,,,,,,,,,,,,,,"151"
"FocanGZ3-TX","GZ3_TX",9.06624,0.033955,7.356567999999999,"20","3","2","1","0","30","100","2","5","18","31.0","0","0","8","29"
"FocanGZ3-RX","GZ3_RX",9.100507,0.01454,7.390834999999999,,,,,,,,,,,,,,,"151"
"FocanGZ3-TX","GZ3_TX",9.170962,0.036757,7.461289999999999,"20","3","2","1","0","30","100","2","5","18","31.0","0","0","8","29"
"FocanGZ3-RX","GZ3_RX",9.208105,0.014539,7.498433,,,,,,,,,,,,,,,"151"
"FocanGZ3-TX","GZ3_TX",9.280662,0.035408,7.57099,"20","3","2","1","0","30","100","2","5","18","31.0","0","0","8","29"
"FocanGZ3-RX","GZ3_RX",9.316691,0.014541,7.607019,,,,,,,,,,,,,,,"151"
"FocanGZ3-TX","GZ3_TX",9.390473,0.036343,7.680801,"20","3","2","1","0","30","100","2","5","18","31.0","0","0","8","29"
"FocanGZ3-RX","GZ3_RX",9.427393,0.01454,7.717720999999999,,,,,,,,,,,,,,,"151"
"FocanGZ3-TX","GZ3_TX",9.500385,0.036348,7.790712999999999,"20","3","2","1","0","30","100","2","5","18","31.0","0","0","8","29"
"FocanGZ3-RX","GZ3_RX",9.537034,0.014539,7.827362,,,,,,,,,,,,,,,"151"
"FocanGZ3-TX","GZ3_TX",9.609999,0.038011,7.900326999999999,"20","3","2","1","0","30","100","2","5","18","31.0","0","0","8","29"
"FocanGZ3-RX","GZ3_RX",9.648689,0.014539,7.939016999999998,,,,,,,,,,,,,,,"151"
"FocanGZ3-TX","GZ3_TX",9.720022,0.036867,8.01035,"20","3","2","1","0","30","100","2","5","18","31.0","0","0","8","29"
"FocanGZ3-RX","GZ3_RX",9.757344,0.014541,8.047671999999999,,,,,,,,,,,,,,,"151"
"FocanGZ3-TX","GZ3_TX",9.829634,0.036451,8.119962,"20","3","2","1","0","30","100","2","5","18","31.0","0","0","8","29"
"FocanGZ3-RX","GZ3_RX",9.86697,0.014542,8.157297999999999,,,,,,,,,,,,,,,"151"
"FocanGZ3-TX","GZ3_TX",9.939552,0.037904,8.229880000000001,"20","3","2","1","0","30","100","2","5","18","31.0","0","0","8","29"
"FocanGZ3-RX","GZ3_RX",9.977677,0.01454,8.268004999999999,,,,,,,,,,,,,,,"151"
"FocanGZ3-TX","GZ3_TX",10.049149,0.038008,8.339476999999999,"20","3","2","1","0","30","100","2","5","18","31.0","0","0","8","29"
"FocanGZ3-RX","GZ3_RX",10.087325,0.014541,8.377653,,,,,,,,,,,,,,,"151"
"FocanGZ3-TX","GZ3_TX",10.159061,0.036862,8.449389,"20","3","2","1","0","30","100","2","5","18","31.0","0","0","8","29"
"FocanGZ3-RX","GZ3_RX",10.196945,0.014542,8.487273,,,,,,,,,,,,,,,"151"
"FocanGZ3-TX","GZ3_TX",10.268654,0.038009,8.558982,"20","3","2","1","0","30","100","2","5","18","31.0","0","0","8","29"
"FocanGZ3-RX","GZ3_RX",10.307626,0.01454,8.597954,,,,,,,,,,,,,,,"151"
"FocanGZ3-TX","GZ3_TX",10.378672,0.036865,8.669,"20","3","2","1","0","30","100","2","5","18","31.0","0","0","8","29"
"FocanGZ3-RX","GZ3_RX",10.416248,0.014541,8.706575999999998,,,,,,,,,,,,,,,"151"
"FocanGZ3-TX","GZ3_TX",10.488275,0.036552,8.778602999999999,"20","3","2","1","0","30","100","2","5","18","31.0","0","0","8","29"
"FocanGZ3-RX","GZ3_RX",10.5259,0.014541,8.816227999999999,,,,,,,,,,,,,,,"151"
"FocanGZ3-TX","GZ3_TX",10.598297,0.036863,8.888625,"20","3","2","1","0","30","100","2","5","18","31.0","0","0","8","29"
"FocanGZ3-RX","GZ3_RX",10.635585,0.01454,8.925913000000001,,,,,,,,,,,,,,,"151"
"FocanGZ3-TX","GZ3_TX",10.7079,0.035932,8.998228,"20","3","2","1","0","30","100","2","5","18","31.0","0","0","8","29"
"FocanGZ3-RX","GZ3_RX",10.744212,0.014541,9.03454,,,,,,,,,,,,,,,"151"
"FocanGZ3-TX","GZ3_TX",10.817822,0.034892,9.10815,"20","3","2","1","0","30","100","2","5","18","31.0","0","0","8","29"
"FocanGZ3-RX","GZ3_RX",10.852845,0.01454,9.143173,,,,,,,,,,,,,,,"151"
"FocanGZ3-TX","GZ3_TX",10.927535,0.036451,9.217863,"20","3","2","1","0","30","100","2","5","18","31.0","0","0","8","29"
"FocanGZ3-RX","GZ3_RX",10.964537,0.014539,9.254865,,,,,,,,,,,,,,,"151"
"FocanGZ3-TX","GZ3_TX",11.037453,0.035826,9.327781,"20","3","2","1","0","30","100","2","5","18","31.0","0","0","8","29"
"FocanGZ3-RX","GZ3_RX",11.074152,0.014541,9.36448,,,,,,,,,,,,,,,"151"
"FocanGZ3-TX","GZ3_TX",11.147056,0.036029,9.437383999999998,"20","3","2","1","0","30","100","2","5","18","31.0","0","0","8","29"
"FocanGZ3-RX","GZ3_RX",11.183812,0.014542,9.47414,,,,,,,,,,,,,,,"151"
"FocanGZ3-TX","GZ3_TX",11.25696,0.036449,9.547288,"20","3","2","1","0","30","100","2","5","18","31.0","0","0","8","29"
"FocanGZ3-RX","GZ3_RX",11.294495,0.014543,9.584823,,,,,,,,,,,,,,,"151"
"FocanGZ3-TX","GZ3_TX",11.366671,0.036552,9.656999,"20","3","2","1","0","30","100","2","5","18","31.0","0","0","8","29"
"FocanGZ3-RX","GZ3_RX",11.404156,0.014542,9.694484,,,,,,,,,,,,,,,"151"
"FocanGZ3-TX","GZ3_TX",11.47669,0.037905,9.767018,"20","3","2","1","0","30","100","2","5","18","31.0","0","0","8","29"
"FocanGZ3-RX","GZ3_RX",11.51487,0.014542,9.805198,,,,,,,,,,,,,,,"151"
"FocanGZ3-TX","GZ3_TX",11.586292,0.036034,9.87662,"20","3","2","1","0","30","100","2","5","18","31.0","0","0","8","29"
"FocanGZ3-RX","GZ3_RX",11.622482,0.014542,9.91281,,,,,,,,,,,,,,,"151"
"FocanGZ3-TX","GZ3_TX",11.696212,0.035412,9.98654,"20","3","2","1","0","30","100","2","5","18","31.0","0","0","8","29"
"FocanGZ3-RX","GZ3_RX",11.732143,0.014543,10.022471,,,,,,,,,,,,,,,"151"
"FocanGZ3-TX","GZ3_TX",11.805929,0.036453,10.096257,"20","3","2","1","0","30","100","2","5","18","31.0","0","0","8","29"
"FocanGZ3-RX","GZ3_RX",11.842828,0.014541,10.133156000000001,,,,,,,,,,,,,,,"151"
"FocanGZ3-TX","GZ3_TX",11.915851,0.036867,10.206179,"20","3","2","1","0","30","100","2","5","18","31.0","0","0","8","29"
"FocanGZ3-RX","GZ3_RX",11.953479,0.014542,10.243807,,,,,,,,,,,,,,,"151"
"FocanGZ3-TX","GZ3_TX",12.025463,0.036452,10.315791,"20","3","2","1","0","30","100","2","5","18","31.0","0","0","8","29"
"FocanGZ3-RX","GZ3_RX",12.062137,0.014541,10.352465,,,,,,,,,,,,,,,"151"
"FocanGZ3-TX","GZ3_TX",12.135389,0.036453,10.425717,"20","3","2","1","0","30","100","2","5","18","31.0","0","0","8","29"
"FocanGZ3-RX","GZ3_RX",12.172775,0.014542,10.463103,,,,,,,,,,,,,,,"151"
"FocanGZ3-TX","GZ3_TX",12.245217,0.037078,10.535545,"20","3","2","1","0","30","100","2","5","18","31.0","0","0","8","29"
"FocanGZ3-RX","GZ3_RX",12.282468,0.014541,10.572796,,,,,,,,,,,,,,,"151"
"FocanGZ3-TX","GZ3_TX",12.355354,0.037388,10.645682,"20","3","2","1","1","30","100","2","5","18","31.0","0","0","8","61"
"FocanGZ3-RX","GZ3_RX",12.393156,0.01454,10.683484,,,,,,,,,,,,,,,"151"
"FocanGZ3-TX","GZ3_TX",12.464969,0.036037,10.755297,"20","3","2","1","1","30","100","2","5","18","31.0","0","0","8","61"
"FocanGZ3-RX","GZ3_RX",12.501751,0.014543,10.792079,,,,,,,,,,,,,,,"151"
"FocanGZ3-TX","GZ3_TX",12.574891,0.035933,10.865219,"20","3","2","1","1","30","100","2","5","18","31.0","0","0","8","61"
"FocanGZ3-RX","GZ3_RX",12.611415,0.014542,10.901742999999998,,,,,,,,,,,,,,,"151"
"FocanGZ3-TX","GZ3_TX",12.684607,0.034996,10.974935,"20","3","2","1","1","30","100","2","5","18","31.0","0","0","8","61"
"FocanGZ3-RX","GZ3_RX",12.720077,0.014541,11.010405,,,,,,,,,,,,,,,"151"
"FocanGZ3-TX","GZ3_TX",12.794531,0.034894,11.084858999999998,"20","3","2","1","1","30","100","2","5","18","31.0","0","0","8","61"
"FocanGZ3-RX","GZ3_RX",12.829737,0.014543,11.120065,,,,,,,,,,,,,,,"151"
"FocanGZ3-TX","GZ3_TX",12.904249,0.037908,11.194577,"20","3","2","1","1","30","100","2","5","18","31.0","0","0","8","61"
"FocanGZ3-RX","GZ3_RX",12.942482,0.014543,11.23281,,,,,,,,,,,,,,,"151"
"FocanGZ3-TX","GZ3_TX",13.014069,0.036454,11.304397,"20","3","2","1","1","30","100","2","5","18","31.0","0","0","8","61"
"FocanGZ3-RX","GZ3_RX",13.051126,0.014543,11.341454,,,,,,,,,,,,,,,"151"
"FocanGZ3-TX","GZ3_TX",13.123788,0.037077,11.414116,"20","3","2","1","1","30","100","2","5","18","31.0","0","0","8","61"
"FocanGZ3-RX","GZ3_RX",13.161781,0.014543,11.452109,,,,,,,,,,,,,,,"151"
"FocanGZ3-TX","GZ3_TX",13.233924,0.035413,11.524252,"20","3","2","1","1","30","100","2","5","18","31.0","0","0","8","61"
"FocanGZ3-RX","GZ3_RX",13.270414,0.014541,11.560742,,,,,,,,,,,,,,,"151"
"FocanGZ3-TX","GZ3_TX",13.343747,0.035933,11.634075,"20","3","2","1","0","30","100","2","5","18","31.0","0","0","8","29"
"FocanGZ3-RX","GZ3_RX",13.380108,0.014544,11.670436,,,,,,,,,,,,,,,"151"
"FocanGZ3-TX","GZ3_TX",13.453568,0.035412,11.743896000000001,"20","3","2","1","0","30","100","2","5","18","31.0","0","0","8","29"
"FocanGZ3-RX","GZ3_RX",13.489738,0.014542,11.780066,,,,,,,,,,,,,,,"151"
"FocanGZ3-TX","GZ3_TX",13.563282,0.036451,11.853609999999998,"20","3","2","1","0","30","100","2","5","18","31.0","0","0","8","29"
"FocanGZ3-RX","GZ3_RX",13.600419,0.014542,11.890747,,,,,,,,,,,,,,,"151"
"FocanGZ3-TX","GZ3_TX",13.673202,0.036347,11.96353,"20","3","2","1","0","30","100","2","5","18","31.0","0","0","8","29"
"FocanGZ3-RX","GZ3_RX",13.71011,0.014541,12.000438,,,,,,,,,,,,,,,"151"
"FocanGZ3-TX","GZ3_TX",13.782814,0.036351,12.073142,"20","3","2","1","0","30","100","2","5","18","31.0","0","0","8","29"
"FocanGZ3-RX","GZ3_RX",13.819763,0.014541,12.110091,,,,,,,,,,,,,,,"151"
"FocanGZ3-TX","GZ3_TX",13.892742,0.035409,12.18307,"20","3","2","1","0","30","100","2","5","18","31.0","0","0","8","29"
"FocanGZ3-RX","GZ3_RX",13.928395,0.014542,12.218723,,,,,,,,,,,,,,,"151"
"FocanGZ3-TX","GZ3_TX",14.002456,0.035097,12.292784,"20","3","2","1","0","30","100","2","5","18","31.0","0","0","8","29"
"FocanGZ3-RX","GZ3_RX",14.038058,0.014543,12.328386,,,,,,,,,,,,,,,"151"
